 can0  682   [1]  00
  can0  35D   [8]  00 03 00 00 10 00 00 00
  can0  280   [8]  00 FF E0 F0 00 00 FF C0
  can0  5C5   [8]  80 01 31 7E 00 0C 00 7F
  can0  60D   [8]  00 00 18 00 00 00 00 00
  can0  358   [8]  00 00 80 00 00 03 44 2E
  can0  215   [6]  FF 30 FF 00 FF FF
  can0  216   [1]  40
  can0  2DE   [8]  00 00 00 04 B0 00 12 C5
  can0  355   [7]  00 00 00 00 00 FF 1C
  can0  625   [6]  02 00 FF 0E 00 20
  can0  2DE   [8]  00 00 00 04 B0 00 12 C5
  can0  351   [8]  2C 02 41 08 00 00 40 08
  can0  280   [8]  00 FF FC 60 00 00 FF C0
  can0  215   [6]  FF 30 FF 00 FF FF
  can0  2DE   [8]  00 00 00 04 B0 00 12 C5
  can0  216   [1]  40
  can0  2DE   [8]  00 00 00 04 B0 00 12 C5
  can0  280   [8]  00 FF E3 D0 00 00 FF C0
  can0  215   [6]  FF 30 FF 00 FF FF
  can0  2DE   [8]  00 00 00 04 B0 00 12 C5
  can0  216   [1]  40
  can0  355   [7]  00 00 00 00 00 FF 1C
  can0  2DE   [8]  00 00 00 04 B0 00 12 C5
  can0  280   [8]  00 FF F1 40 00 00 FF C0
  can0  215   [6]  FF 30 FF 00 FF FF
  can0  2DE   [8]  00 00 00 04 B0 00 12 C5
  can0  216   [1]  40
  can0  2DE   [8]  00 00 00 04 B0 00 12 C5
  can0  280   [8]  00 FF F1 A0 00 00 FF C0
  can0  215   [6]  FF 30 FF 00 FF FF
  can0  2DE   [8]  00 00 00 04 B0 00 12 C5
  can0  216   [1]  40
  can0  355   [7]  00 00 00 00 00 FF 1C
  can0  35D   [8]  00 03 00 00 10 00 00 00
  can0  2DE   [8]  00 00 00 04 B0 00 12 C5
  can0  280   [8]  00 FF F4 10 00 00 FF C0
  can0  5C5   [8]  80 01 31 7E 00 0C 00 7F
  can0  60D   [8]  00 00 18 00 00 00 00 00
  can0  358   [8]  00 00 80 00 00 03 44 2E
  can0  215   [6]  FF 30 FF 00 FF FF
  can0  216   [1]  40
  can0  2DE   [8]  00 00 00 04 B0 00 12 C5
  can0  625   [6]  02 00 C9 0E 00 BE
  can0  2DE   [8]  00 00 00 04 B0 00 12 C5
  can0  351   [8]  2C 02 15 22 00 00 40 08
  can0  280   [8]  00 FF C2 90 00 00 FF C0
  can0  215   [6]  FF 30 FF 00 FF FF
  can0  2DE   [8]  00 00 00 04 B0 00 12 C5
  can0  216   [1]  40
  can0  355   [7]  00 00 00 00 00 FF 1C
  can0  2DE   [8]  00 00 00 04 B0 00 12 C5
  can0  280   [8]  00 FF C2 F0 00 00 FF C0
  can0  215   [6]  FF 30 FF 00 FF FF
  can0  2DE   [8]  00 00 00 04 B0 00 12 C5
  can0  216   [1]  40
  can0  2DE   [8]  00 00 00 04 B0 00 12 C5
  can0  280   [8]  00 FF C3 60 00 00 FF C0
  can0  215   [6]  FF 30 FF 00 FF FF
  can0  2DE   [8]  00 00 00 04 B0 00 12 C5
  can0  216   [1]  40
  can0  355   [7]  00 00 00 00 00 FF 1C
  can0  2DE   [8]  00 00 00 04 B0 00 12 C5
  can0  280   [8]  00 FF D3 D0 00 00 FF C0
  can0  215   [6]  FF 30 FF 00 FF FF
  can0  2DE   [8]  00 00 00 04 B0 00 12 C5
  can0  216   [1]  40
  can0  35D   [8]  00 03 00 00 10 00 00 00
  can0  2DE   [8]  00 00 00 04 B0 00 12 C5
  can0  280   [8]  00 FF CE 40 00 00 FF C0
  can0  5C5   [8]  80 01 31 7E 00 0C 00 7F
  can0  60D   [8]  00 00 18 00 00 00 00 00
  can0  358   [8]  00 00 80 00 00 03 44 2E
  can0  215   [6]  FF 30 FF 00 FF FF
  can0  2DE   [8]  00 00 00 04 B0 00 12 C5
  can0  216   [1]  40
  can0  355   [7]  00 00 00 00 00 FF 1C
  can0  625   [6]  02 00 CA 0E 00 7B
  can0  2DE   [8]  00 00 00 04 B0 00 12 C5
  can0  351   [8]  2C 02 41 0A 00 00 40 08
  can0  280   [8]  00 FF ED C0 00 00 FF C0
  can0  215   [6]  FF 30 FF 00 FF FF
  can0  2DE   [8]  00 00 00 04 B0 00 12 C5
  can0  216   [1]  40
  can0  2DE   [8]  00 00 00 04 B0 00 12 C5
  can0  280   [8]  00 FF DE 20 00 00 FF C0
  can0  215   [6]  FF 30 FF 00 FF FF
  can0  2DE   [8]  00 00 00 04 B0 00 12 C5
  can0  216   [1]  40
  can0  355   [7]  00 00 00 00 00 FF 1C
  can0  2DE   [8]  00 00 00 04 B0 00 12 C5
  can0  280   [8]  00 FF E0 90 00 00 FF C0
  can0  215   [6]  FF 30 FF 00 FF FF
  can0  2DE   [8]  00 00 00 04 B0 00 12 C5
  can0  216   [1]  40
  can0  2DE   [8]  00 00 00 04 B0 00 12 C5
  can0  280   [8]  00 FF E4 00 00 00 FF C0
  can0  215   [6]  FF 30 FF 00 FF FF
  can0  2DE   [8]  00 00 00 04 B0 00 12 C5
  can0  216   [1]  40
  can0  355   [7]  00 00 00 00 00 FF 1C
  can0  35D   [8]  00 03 00 00 10 00 00 00
  can0  2DE   [8]  00 00 00 04 B0 00 12 C5
  can0  280   [8]  00 FF F2 70 00 00 FF C0
  can0  5C5   [8]  80 01 31 7E 00 0C 00 7F
  can0  60D   [8]  00 00 18 00 00 00 00 00
  can0  358   [8]  00 00 80 00 00 03 44 2E
  can0  215   [6]  FF 30 FF 00 FF FF
  can0  2DE   [8]  00 00 00 04 B0 00 12 C5
  can0  216   [1]  40
  can0  625   [6]  02 00 CA 0E 01 8D
  can0  2DE   [8]  00 00 00 04 B0 00 12 C5
  can0  351   [8]  2C 02 14 AA 00 00 40 08
  can0  280   [8]  00 FF CF E0 00 00 FF C0
  can0  215   [6]  FF 30 FF 00 FF FF
  can0  2DE   [8]  00 00 00 04 B0 00 12 C5
  can0  216   [1]  40
  can0  355   [7]  00 00 00 00 00 FF 1C
  can0  2DE   [8]  00 00 00 04 B0 00 12 C5
  can0  280   [8]  00 FF F2 50 00 00 FF C0
  can0  215   [6]  FF 30 FF 00 FF FF
  can0  2DE   [8]  00 00 00 04 B0 00 12 C5
  can0  216   [1]  40
  can0  2DE   [8]  00 00 00 04 B0 00 12 C5
  can0  280   [8]  00 FF C3 C0 00 00 FF C0
  can0  215   [6]  FF 30 FF 00 FF FF
  can0  2DE   [8]  00 00 00 04 B0 00 12 C5
  can0  216   [1]  40
  can0  355   [7]  00 00 00 00 00 FF 1C
  can0  2DE   [8]  00 00 00 04 B0 00 12 C5
  can0  280   [8]  00 FF C1 30 00 00 FF C0
  can0  215   [6]  FF 30 FF 00 FF FF
  can0  2DE   [8]  00 00 00 04 B0 00 12 C5
  can0  216   [1]  40
  can0  35D   [8]  00 03 00 00 10 00 00 00
  can0  2DE   [8]  00 00 00 04 B0 00 12 C5
  can0  280   [8]  00 FF C5 A0 00 00 FF C0
  can0  5C5   [8]  80 01 31 7E 00 0C 00 7F
  can0  60D   [8]  00 00 18 00 00 00 00 00
  can0  358   [8]  00 00 80 00 00 03 44 2E
  can0  215   [6]  FF 30 FF 00 FF FF
  can0  2DE   [8]  00 00 00 04 B0 00 12 C5
  can0  216   [1]  40
  can0  355   [7]  00 00 00 00 00 FF 1C
  can0  625   [6]  02 00 CA 0E 00 07
  can0  2DE   [8]  00 00 00 04 B0 00 12 C5
  can0  351   [8]  2C 02 01 08 00 00 40 08
  can0  280   [8]  00 FF D1 10 00 00 FF C0
  can0  2DE   [8]  00 00 00 04 B0 00 12 C5
  can0  215   [6]  FF 30 FF 00 FF FF
  can0  216   [1]  40
  can0  2DE   [8]  00 00 00 04 B0 00 12 C5
  can0  280   [8]  00 FF CF 70 00 00 FF C0
  can0  2DE   [8]  00 00 00 04 B0 00 12 C5
  can0  215   [6]  FF 30 FF 00 FF FF
  can0  355   [7]  00 00 00 00 00 FF 1C
  can0  216   [1]  40
  can0  2DE   [8]  00 00 00 04 B0 00 12 C5
  can0  280   [8]  00 FF D1 E0 00 00 FF C0
  can0  2DE   [8]  00 00 00 04 B0 00 12 C5
  can0  215   [6]  FF 30 FF 00 FF FF
  can0  216   [1]  40
  can0  2DE   [8]  00 00 00 04 B0 00 12 C5
  can0  280   [8]  00 FF E2 50 00 00 FF C0
  can0  2DE   [8]  00 00 00 04 B0 00 12 C5
  can0  215   [6]  FF 30 FF 00 FF FF
  can0  355   [7]  00 00 00 00 00 FF 1C
  can0  216   [1]  40
  can0  35D   [8]  00 03 00 00 10 00 00 00
  can0  2DE   [8]  00 00 00 04 B0 00 12 C5
  can0  280   [8]  00 FF E2 C0 00 00 FF C0
  can0  5C5   [8]  80 01 31 7E 00 0C 00 7F
  can0  60D   [8]  00 00 18 00 00 00 00 00
  can0  358   [8]  00 00 80 00 00 03 44 2E
  can0  215   [6]  FF 30 FF 00 FF FF
  can0  2DE   [8]  00 00 00 04 B0 00 12 C5
  can0  216   [1]  40
  can0  625   [6]  02 00 CA 0E 03 C9
  can0  2DE   [8]  00 00 00 04 B0 00 12 C5
  can0  351   [8]  2C 02 11 00 00 00 40 08
  can0  280   [8]  00 FF C0 40 00 00 FF C0
  can0  2DE   [8]  00 00 00 04 B0 00 12 C5
  can0  215   [6]  FF 30 FF 00 FF FF
  can0  355   [7]  00 00 00 00 00 FF 1C
  can0  216   [1]  40
  can0  2DE   [8]  00 00 00 04 B0 00 12 C5
  can0  280   [8]  00 FF F2 A0 00 00 FF C0
  can0  2DE   [8]  00 00 00 04 B0 00 12 C5
  can0  215   [6]  FF 30 FF 00 FF FF
  can0  216   [1]  40
  can0  2DE   [8]  00 00 00 04 B0 00 12 C5
  can0  280   [8]  00 FF F1 10 00 00 FF C0
  can0  2DE   [8]  00 00 00 04 B0 00 12 C5
  can0  215   [6]  FF 30 FF 00 FF FF
  can0  355   [7]  00 00 00 00 00 FF 1C
  can0  216   [1]  40
  can0  2DE   [8]  00 00 00 04 B0 00 12 C5
  can0  280   [8]  00 FF F3 80 00 00 FF C0
  can0  2DE   [8]  00 00 00 04 B0 00 12 C5
  can0  215   [6]  FF 30 FF 00 FF FF
  can0  216   [1]  40
  can0  35D   [8]  00 03 00 00 10 00 00 00
  can0  2DE   [8]  00 00 00 04 B0 00 12 C5
  can0  280   [8]  00 FF C3 F0 00 00 FF C0
  can0  5C5   [8]  80 01 31 7E 00 0C 00 7F
  can0  60D   [8]  00 00 18 00 00 00 00 00
  can0  358   [8]  00 00 80 00 00 03 44 2E
  can0  2DE   [8]  00 00 00 04 B0 00 12 C5
  can0  215   [6]  FF 30 FF 00 FF FF
  can0  20000004   [8]  00 01 00 00 00 00 00 00   ERRORFRAME
  can0  216   [1]  40
  can0  625   [6]  02 00 CA 0E 02 39
  can0  2DE   [8]  00 00 00 04 B0 00 12 C5
  can0  351   [8]  2C 02 04 82 00 00 40 08
  can0  280   [8]  00 FF DA 60 00 00 FF C0
  can0  2DE   [8]  00 00 00 04 B0 00 12 C5
  can0  215   [6]  FF 30 FF 00 FF FF
  can0  216   [1]  40
  can0  2DE   [8]  00 00 00 04 B0 00 12 C5
  can0  280   [8]  00 FF C0 D0 00 00 FF C0
  can0  2DE   [8]  00 00 00 04 B0 00 12 C5
  can0  215   [6]  FF 30 FF 00 FF FF
  can0  355   [7]  00 00 00 00 00 FF 1C
  can0  216   [1]  40
  can0  2DE   [8]  00 00 00 04 B0 00 12 C5
  can0  280   [8]  00 FF CF 40 00 00 FF C0
  can0  2DE   [8]  00 00 00 04 B0 00 12 C5
  can0  215   [6]  FF 30 FF 00 FF FF
  can0  216   [1]  40
  can0  2DE   [8]  00 00 00 04 B0 00 12 C5
  can0  280   [8]  00 FF D2 B0 00 00 FF C0
  can0  2DE   [8]  00 00 00 04 B0 00 12 C5
  can0  215   [6]  FF 30 FF 00 FF FF
  can0  355   [7]  00 00 00 00 00 FF 1C
  can0  216   [1]  40
  can0  35D   [8]  00 03 00 00 10 00 00 00
  can0  2DE   [8]  00 00 00 04 B0 00 12 C5
  can0  280   [8]  00 FF D3 20 00 00 FF C0
  can0  5C5   [8]  80 01 31 7E 00 0C 00 7F
  can0  60D   [8]  00 00 18 00 00 00 00 00
  can0  358   [8]  00 00 80 00 00 03 44 2E
  can0  2DE   [8]  00 00 00 04 B0 00 12 C5
  can0  216   [1]  40
  can0  215   [6]  FF 30 FF 00 FF FF
  can0  625   [6]  02 00 CA 0E 01 20
  can0  2DE   [8]  00 00 00 04 B0 00 12 C5
  can0  351   [8]  2C 02 51 80 00 00 40 08
  can0  280   [8]  00 FF E2 90 00 00 FF C0
  can0  2DE   [8]  00 00 00 04 B0 00 12 C5
  can0  215   [6]  FF 30 FF 00 FF FF
  can0  355   [7]  00 00 00 00 00 FF 1C
  can0  216   [1]  40
  can0  2DE   [8]  00 00 00 04 B0 00 12 C5
  can0  280   [8]  00 FF E2 F0 00 00 FF C0
  can0  2DE   [8]  00 00 00 04 B0 00 12 C5
  can0  215   [6]  FF 30 FF 00 FF FF
  can0  216   [1]  40
  can0  2DE   [8]  00 00 00 04 B0 00 12 C5
  can0  280   [8]  00 FF E4 60 00 00 FF C0
  can0  2DE   [8]  00 00 00 04 B0 00 12 C5
  can0  355   [7]  00 00 00 00 00 FF 1C
  can0  215   [6]  FF 30 FF 00 FF FF
  can0  216   [1]  40
  can0  2DE   [8]  00 00 00 04 B0 00 12 C5
  can0  280   [8]  00 FF F3 D0 00 00 FF C0
  can0  2DE   [8]  00 00 00 04 B0 00 12 C5
  can0  215   [6]  FF 30 FF 00 FF FF
  can0  216   [1]  40
  can0  35D   [8]  00 03 00 00 10 00 00 00
  can0  2DE   [8]  00 00 00 04 B0 00 12 C5
  can0  280   [8]  00 FF F0 40 00 00 FF C0
  can0  5C5   [8]  80 01 31 7E 00 0C 00 7F
  can0  60D   [8]  00 00 18 00 00 00 00 00
  can0  358   [8]  00 00 80 00 00 03 44 2E
  can0  2DE   [8]  00 00 00 04 B0 00 12 C5
  can0  215   [6]  FF 30 FF 00 FF FF
  can0  355   [7]  00 00 00 00 00 FF 1C
  can0  216   [1]  40
  can0  625   [6]  02 00 CA 0E 02 59
  can0  2DE   [8]  00 00 00 04 B0 00 12 C5
  can0  351   [8]  2C 02 04 0A 00 00 40 08
  can0  280   [8]  00 FF D4 C0 00 00 FF C0
  can0  2DE   [8]  00 00 00 04 B0 00 12 C5
  can0  215   [6]  FF 30 FF 00 FF FF
  can0  216   [1]  40
  can0  2DE   [8]  00 00 00 04 B0 00 12 C5
  can0  280   [8]  00 FF FF 20 00 00 FF C0
  can0  2DE   [8]  00 00 00 04 B0 00 12 C5
  can0  355   [7]  00 00 00 00 00 FF 1C
  can0  20000004   [8]  00 01 00 00 00 00 00 00   ERRORFRAME
  can0  215   [6]  FF 30 FF 00 FF FF
  can0  216   [1]  40
  can0  2DE   [8]  00 00 00 04 B0 00 12 C5
  can0  280   [8]  00 FF FF 90 00 00 FF C0
  can0  2DE   [8]  00 00 00 04 B0 00 12 C5
  can0  215   [6]  FF 30 FF 00 FF FF
  can0  216   [1]  40
  can0  2DE   [8]  00 00 00 04 B0 00 12 C5
  can0  280   [8]  00 FF C3 00 00 00 FF C0
  can0  2DE   [8]  00 00 00 04 B0 00 12 C5
  can0  355   [7]  00 00 00 00 00 FF 1C
  can0  215   [6]  FF 30 FF 00 FF FF
  can0  216   [1]  40
  can0  35D   [8]  00 03 00 00 10 00 00 00
  can0  2DE   [8]  00 00 00 04 B0 00 12 C5
  can0  280   [8]  00 FF D1 70 00 00 FF C0
  can0  5C5   [8]  80 01 31 7E 00 0C 00 7F
  can0  60D   [8]  00 00 18 00 00 00 00 00
  can0  358   [8]  00 00 80 00 00 03 44 2E
  can0  2DE   [8]  00 00 00 04 B0 00 12 C5
  can0  215   [6]  FF 30 FF 00 FF FF
  can0  216   [1]  40
  can0  625   [6]  02 00 CA 0E 00 3B
  can0  2DE   [8]  00 00 00 04 B0 00 12 C5
  can0  351   [8]  2C 02 10 0A 00 00 40 08
  can0  280   [8]  00 FF D2 F0 00 00 FF C0
  can0  2DE   [8]  00 00 00 04 B0 00 12 C5
  can0  355   [7]  00 00 00 00 00 FF 1C
  can0  215   [6]  FF 30 FF 00 FF FF
  can0  216   [1]  40
  can0  2DE   [8]  00 00 00 04 B0 00 12 C5
  can0  280   [8]  00 FF D3 50 00 00 FF C0
  can0  2DE   [8]  00 00 00 04 B0 00 12 C5
  can0  215   [6]  FF 30 FF 00 FF FF
  can0  216   [1]  40
  can0  2DE   [8]  00 00 00 04 B0 00 12 C5
  can0  280   [8]  00 FF E2 C0 00 00 FF C0
  can0  2DE   [8]  00 00 00 04 B0 00 12 C5
  can0  355   [7]  00 00 00 00 00 FF 1C
  can0  215   [6]  FF 30 FF 00 FF FF
  can0  216   [1]  40
  can0  2DE   [8]  00 00 00 04 B0 00 12 C5
  can0  280   [8]  00 FF E2 30 00 00 FF C0
  can0  2DE   [8]  00 00 00 04 B0 00 12 C5
  can0  215   [6]  FF 30 FF 00 FF FF
  can0  216   [1]  40
  can0  35D   [8]  00 03 00 00 10 00 00 00
  can0  2DE   [8]  00 00 00 04 B0 00 12 C5
  can0  280   [8]  00 FF E4 A0 00 00 FF C0
  can0  5C5   [8]  80 01 31 7E 00 0C 00 7F
  can0  60D   [8]  00 00 18 00 00 00 00 00
  can0  358   [8]  00 00 80 00 00 03 44 2E
  can0  2DE   [8]  00 00 00 04 B0 00 12 C5
  can0  355   [7]  00 00 00 00 00 FF 1C
  can0  215   [6]  FF 30 FF 00 FF FF
  can0  216   [1]  40
  can0  625   [6]  02 00 CA 0E 00 E3
  can0  2DE   [8]  00 00 00 04 B0 00 12 C5
  can0  351   [8]  2C 02 15 02 00 00 40 08
  can0  280   [8]  00 FF D0 10 00 00 FF C0
  can0  2DE   [8]  00 00 00 04 B0 00 12 C5
  can0  215   [6]  FF 30 FF 00 FF FF
  can0  216   [1]  40
  can0  2DE   [8]  00 00 00 04 B0 00 12 C5
  can0  280   [8]  00 FF EE 70 00 00 FF C0
  can0  2DE   [8]  00 00 00 04 B0 00 12 C5
  can0  355   [7]  00 00 00 00 00 FF 1C
  can0  215   [6]  FF 30 FF 00 FF FF
  can0  216   [1]  40
  can0  2DE   [8]  00 00 00 04 B0 00 12 C5
  can0  280   [8]  00 FF EF E0 00 00 FF C0
  can0  2DE   [8]  00 00 00 04 B0 00 12 C5
  can0  215   [6]  FF 30 FF 00 FF FF
  can0  216   [1]  40
  can0  2DE   [8]  00 00 00 04 B0 00 12 C5
  can0  280   [8]  00 FF FF 50 00 00 FF C0
  can0  2DE   [8]  00 00 00 04 B0 00 12 C5
  can0  355   [7]  00 00 00 00 00 FF 1C
  can0  215   [6]  FF 30 FF 00 FF FF
  can0  216   [1]  40
  can0  35D   [8]  00 03 00 00 10 00 00 00
  can0  2DE   [8]  00 00 00 04 B0 00 12 C5
  can0  280   [8]  00 FF C0 C0 00 00 FF C0
  can0  5C5   [8]  80 01 31 7E 00 0C 00 7F
  can0  60D   [8]  00 00 18 00 00 00 00 00
  can0  358   [8]  00 00 80 00 00 03 44 2E
  can0  2DE   [8]  00 00 00 04 B0 00 12 C5
  can0  215   [6]  FF 30 FF 00 FF FF
  can0  216   [1]  40
  can0  625   [6]  02 00 CA 0E 02 C4
  can0  2DE   [8]  00 00 00 04 B0 00 12 C5
  can0  351   [8]  2C 02 54 82 00 00 40 08
  can0  280   [8]  00 FF C3 40 00 00 FF C0
  can0  2DE   [8]  00 00 00 04 B0 00 12 C5
  can0  215   [6]  FF 30 FF 00 FF FF
  can0  355   [7]  00 00 00 00 00 FF 1C
  can0  216   [1]  40
  can0  20000004   [8]  00 01 00 00 00 00 00 00   ERRORFRAME
  can0  2DE   [8]  00 00 00 04 B0 00 12 C5
  can0  280   [8]  00 FF D2 A0 00 00 FF C0
  can0  2DE   [8]  00 00 00 04 B0 00 12 C5
  can0  215   [6]  FF 30 FF 00 FF FF
  can0  216   [1]  40
  can0  2DE   [8]  00 00 00 04 B0 00 12 C5
  can0  280   [8]  00 FF D1 10 00 00 FF C0
  can0  2DE   [8]  00 00 00 04 B0 00 12 C5
  can0  355   [7]  00 00 00 00 00 FF 1C
  can0  215   [6]  FF 30 FF 00 FF FF
  can0  216   [1]  40
  can0  2DE   [8]  00 00 00 04 B0 00 12 C5
  can0  280   [8]  00 FF D4 80 00 00 FF C0
  can0  2DE   [8]  00 00 00 04 B0 00 12 C5
  can0  215   [6]  FF 30 FF 00 FF FF
  can0  216   [1]  40
  can0  35D   [8]  00 03 00 00 10 00 00 00
  can0  2DE   [8]  00 00 00 04 B0 00 12 C5
  can0  280   [8]  00 FF E2 F0 00 00 FF C0
  can0  5C5   [8]  80 01 31 7E 00 0C 00 7F
  can0  60D   [8]  00 00 18 00 00 00 00 00
  can0  358   [8]  00 00 80 00 00 03 44 2E
  can0  2DE   [8]  00 00 00 04 B0 00 12 C5
  can0  355   [7]  00 00 00 00 00 FF 1C
  can0  215   [6]  FF 30 FF 00 FF FF
  can0  216   [1]  40
  can0  625   [6]  02 00 CA 0E 03 2F
  can0  2DE   [8]  00 00 00 04 B0 00 12 C5
  can0  351   [8]  2C 02 01 20 00 00 40 08
  can0  280   [8]  00 FF E2 70 00 00 FF C0
  can0  2DE   [8]  00 00 00 04 B0 00 12 C5
  can0  215   [6]  FF 30 FF 00 FF FF
  can0  216   [1]  40
  can0  2DE   [8]  00 00 00 04 B0 00 12 C5
  can0  280   [8]  00 FF E7 D0 00 00 FF C0
  can0  2DE   [8]  00 00 00 04 B0 00 12 C5
  can0  355   [7]  00 00 00 00 00 FF 1C
  can0  215   [6]  FF 30 FF 00 FF FF
  can0  216   [1]  40
  can0  2DE   [8]  00 00 00 04 B0 00 12 C5
  can0  280   [8]  00 FF EE 40 00 00 FF C0
  can0  2DE   [8]  00 00 00 04 B0 00 12 C5
  can0  215   [6]  FF 30 FF 00 FF FF
  can0  216   [1]  40
  can0  2DE   [8]  00 00 00 04 B0 00 12 C5
  can0  280   [8]  00 FF EF B0 00 00 FF C0
  can0  2DE   [8]  00 00 00 04 B0 00 12 C5
  can0  355   [7]  00 00 00 00 00 FF 1C
  can0  215   [6]  FF 30 FF 00 FF FF
  can0  216   [1]  40
  can0  35D   [8]  00 03 00 00 10 00 00 00
  can0  2DE   [8]  00 00 00 04 B0 00 12 C5
  can0  280   [8]  00 FF F2 20 00 00 FF C0
  can0  5C5   [8]  80 01 31 7E 00 0C 00 7F
  can0  60D   [8]  00 00 18 00 00 00 00 00
  can0  358   [8]  00 00 80 00 00 03 44 2E
  can0  2DE   [8]  00 00 00 04 B0 00 12 C5
  can0  215   [6]  FF 30 FF 00 FF FF
  can0  216   [1]  40
  can0  625   [6]  02 00 CA 0E 03 AA
  can0  2DE   [8]  00 00 00 04 B0 00 12 C5
  can0  351   [8]  2C 02 11 08 00 00 40 08
  can0  280   [8]  00 FF C4 A0 00 00 FF C0
  can0  2DE   [8]  00 00 00 04 B0 00 12 C5
  can0  355   [7]  00 00 00 00 00 FF 1C
  can0  215   [6]  FF 30 FF 00 FF FF
  can0  216   [1]  40
  can0  2DE   [8]  00 00 00 04 B0 00 12 C5
  can0  280   [8]  00 FF C0 00 00 00 FF C0
  can0  2DE   [8]  00 00 00 04 B0 00 12 C5
  can0  215   [6]  FF 30 FF 00 FF FF
  can0  216   [1]  40
  can0  2DE   [8]  00 00 00 04 B0 00 12 C5
  can0  280   [8]  00 FF C3 70 00 00 FF C0
  can0  2DE   [8]  00 00 00 04 B0 00 12 C5
  can0  355   [7]  00 00 00 00 00 FF 1C
  can0  215   [6]  FF 30 FF 00 FF FF
  can0  216   [1]  40
  can0  2DE   [8]  00 00 00 04 B0 00 12 C5
  can0  280   [8]  00 FF D2 E0 00 00 FF C0
  can0  2DE   [8]  00 00 00 04 B0 00 12 C5
  can0  215   [6]  FF 30 FF 00 FF FF
  can0  216   [1]  40
  can0  35D   [8]  00 03 00 00 10 00 00 00
  can0  2DE   [8]  00 00 00 04 B0 00 12 C5
  can0  280   [8]  00 FF D1 40 00 00 FF C0
  can0  5C5   [8]  80 01 31 7E 00 0C 00 7F
  can0  60D   [8]  00 00 18 00 00 00 00 00
  can0  358   [8]  00 00 80 00 00 03 44 2E
  can0  2DE   [8]  00 00 00 04 B0 00 12 C5
  can0  355   [7]  00 00 00 00 00 FF 1C
  can0  215   [6]  FF 30 FF 00 FF FF
  can0  216   [1]  40
  can0  625   [6]  02 00 CA 0E 01 52
  can0  2DE   [8]  00 00 00 04 B0 00 12 C5
  can0  351   [8]  2C 02 55 A2 00 00 40 08
  can0  280   [8]  00 FF D4 C0 00 00 FF C0
  can0  2DE   [8]  00 00 00 04 B0 00 12 C5
  can0  215   [6]  FF 30 FF 00 FF FF
  can0  216   [1]  40
  can0  2DE   [8]  00 00 00 04 B0 00 12 C5
  can0  280   [8]  00 FF E2 20 00 00 FF C0
  can0  2DE   [8]  00 00 00 04 B0 00 12 C5
  can0  355   [7]  00 00 00 00 00 FF 1C
  can0  215   [6]  FF 30 FF 00 FF FF
  can0  216   [1]  40
  can0  2DE   [8]  00 00 00 04 B0 00 12 C5
  can0  280   [8]  00 FF DE 90 00 00 FF C0
  can0  2DE   [8]  00 00 00 04 B0 00 12 C5
  can0  215   [6]  FF 30 FF 00 FF FF
  can0  216   [1]  40
  can0  2DE   [8]  00 00 00 04 B0 00 12 C5
  can0  280   [8]  00 FF E1 00 00 00 FF C0
  can0  2DE   [8]  00 00 00 04 B0 00 12 C5
  can0  355   [7]  00 00 00 00 00 FF 1C
  can0  215   [6]  FF 30 FF 00 FF FF
  can0  216   [1]  40
  can0  35D   [8]  00 03 00 00 10 00 00 00
  can0  2DE   [8]  00 00 00 04 B0 00 12 C5
  can0  280   [8]  00 FF EE 70 00 00 FF C0
  can0  5C5   [8]  80 01 31 7E 00 0C 00 7F
  can0  60D   [8]  00 00 18 00 00 00 00 00
  can0  358   [8]  00 00 80 00 00 03 44 2E
  can0  2DE   [8]  00 00 00 04 B0 00 12 C5
  can0  215   [6]  FF 30 FF 00 FF FF
  can0  216   [1]  40
  can0  625   [6]  02 00 CA 0E 01 A2
  can0  2DE   [8]  00 00 00 04 B0 00 12 C5
  can0  351   [8]  2C 02 44 00 00 00 40 08
  can0  280   [8]  00 FF CE F0 00 00 FF C0
  can0  2DE   [8]  00 00 00 04 B0 00 12 C5
  can0  355   [7]  00 00 00 00 00 FF 1C
  can0  215   [6]  FF 30 FF 00 FF FF
  can0  216   [1]  40
  can0  2DE   [8]  00 00 00 04 B0 00 12 C5
  can0  280   [8]  00 FF F4 50 00 00 FF C0
  can0  2DE   [8]  00 00 00 04 B0 00 12 C5
  can0  215   [6]  FF 30 FF 00 FF FF
  can0  216   [1]  40
  can0  2DE   [8]  00 00 00 04 B0 00 12 C5
  can0  280   [8]  00 FF C1 C0 00 00 FF C0
  can0  2DE   [8]  00 00 00 04 B0 00 12 C5
  can0  355   [7]  00 00 00 00 00 FF 1C
  can0  215   [6]  FF 30 FF 00 FF FF
  can0  216   [1]  40
  can0  2DE   [8]  00 00 00 04 B0 00 12 C5
  can0  280   [8]  00 FF C1 30 00 00 FF C0
  can0  2DE   [8]  00 00 00 04 B0 00 12 C5
  can0  215   [6]  FF 30 FF 00 FF FF
  can0  216   [1]  40
  can0  35D   [8]  00 03 00 00 10 00 00 00
  can0  2DE   [8]  00 00 00 04 B0 00 12 C5
  can0  280   [8]  00 FF C3 A0 00 00 FF C0
  can0  5C5   [8]  80 01 31 7E 00 0C 00 7F
  can0  60D   [8]  00 00 18 00 00 00 00 00
  can0  358   [8]  00 00 80 00 00 03 44 2E
  can0  2DE   [8]  00 00 00 04 B0 00 12 C5
  can0  355   [7]  00 00 00 00 00 FF 1C
  can0  215   [6]  FF 30 FF 00 FF FF
  can0  216   [1]  40
  can0  625   [6]  02 00 CA 0E 02 47
  can0  2DE   [8]  00 00 00 04 B0 00 12 C5
  can0  351   [8]  2C 02 54 82 00 00 40 08
  can0  280   [8]  00 FF D3 20 00 00 FF C0
  can0  2DE   [8]  00 00 00 04 B0 00 12 C5
  can0  215   [6]  FF 30 FF 00 FF FF
  can0  216   [1]  40
  can0  2DE   [8]  00 00 00 04 B0 00 12 C5
  can0  280   [8]  00 FF D1 80 00 00 FF C0
  can0  2DE   [8]  00 00 00 04 B0 00 12 C5
  can0  355   [7]  00 00 00 00 00 FF 1C
  can0  215   [6]  FF 30 FF 00 FF FF
  can0  216   [1]  40
  can0  2DE   [8]  00 00 00 04 B0 00 12 C5
  can0  280   [8]  00 FF D7 F0 00 00 FF C0
  can0  2DE   [8]  00 00 00 04 B0 00 12 C5
  can0  215   [6]  FF 30 FF 00 FF FF
  can0  216   [1]  40
  can0  2DE   [8]  00 00 00 04 B0 00 12 C5
  can0  280   [8]  00 FF DF 60 00 00 FF C0
  can0  2DE   [8]  00 00 00 04 B0 00 12 C5
  can0  355   [7]  00 00 00 00 00 FF 1C
  can0  215   [6]  FF 30 FF 00 FF FF
  can0  216   [1]  40
  can0  35D   [8]  00 03 00 00 10 00 00 00
  can0  2DE   [8]  00 00 00 04 B0 00 12 C5
  can0  280   [8]  00 FF DF C0 00 00 FF C0
  can0  5C5   [8]  80 01 31 7E 00 0C 00 7F
  can0  60D   [8]  00 00 18 00 00 00 00 00
  can0  358   [8]  00 00 80 00 00 03 44 2E
  can0  2DE   [8]  00 00 00 04 B0 00 12 C5
  can0  215   [6]  FF 30 FF 00 FF FF
  can0  216   [1]  40
  can0  625   [6]  02 00 CA 0E 01 F1
  can0  2DE   [8]  00 00 00 04 B0 00 12 C5
  can0  351   [8]  2C 02 44 00 00 00 40 08
  can0  280   [8]  00 FF E4 40 00 00 FF C0
  can0  2DE   [8]  00 00 00 04 B0 00 12 C5
  can0  355   [7]  00 00 00 00 00 FF 1C
  can0  215   [6]  FF 30 FF 00 FF FF
  can0  216   [1]  40
  can0  2DE   [8]  00 00 00 04 B0 00 12 C5
  can0  280   [8]  00 FF F3 A0 00 00 FF C0
  can0  2DE   [8]  00 00 00 04 B0 00 12 C5
  can0  215   [6]  FF 30 FF 00 FF FF
  can0  216   [1]  40
  can0  2DE   [8]  00 00 00 04 B0 00 12 C5
  can0  280   [8]  00 FF F2 10 00 00 FF C0
  can0  2DE   [8]  00 00 00 04 B0 00 12 C5
  can0  355   [7]  00 00 00 00 00 FF 1C
  can0  215   [6]  FF 30 FF 00 FF FF
  can0  216   [1]  40
  can0  2DE   [8]  00 00 00 04 B0 00 12 C5
  can0  280   [8]  00 FF F2 80 00 00 FF C0
  can0  2DE   [8]  00 00 00 04 B0 00 12 C5
  can0  215   [6]  FF 30 FF 00 FF FF
  can0  216   [1]  40
  can0  35D   [8]  00 03 00 00 10 00 00 00
  can0  2DE   [8]  00 00 00 04 B0 00 12 C5
  can0  280   [8]  00 FF C1 F0 00 00 FF C0
  can0  5C5   [8]  80 01 31 7E 00 0C 00 7F
  can0  60D   [8]  00 00 18 00 00 00 00 00
  can0  358   [8]  00 00 80 00 00 03 44 2E
  can0  2DE   [8]  00 00 00 04 B0 00 12 C5
  can0  355   [7]  00 00 00 00 00 FF 1C
  can0  215   [6]  FF 30 FF 00 FF FF
  can0  216   [1]  40
  can0  625   [6]  02 00 CA 0E 02 49
  can0  2DE   [8]  00 00 00 04 B0 00 12 C5
  can0  351   [8]  2C 02 41 08 00 00 40 08
  can0  280   [8]  00 FF DF 70 00 00 FF C0
  can0  2DE   [8]  00 00 00 04 B0 00 12 C5
  can0  215   [6]  FF 30 FF 00 FF FF
  can0  216   [1]  40
  can0  2DE   [8]  00 00 00 04 B0 00 12 C5
  can0  280   [8]  00 FF C3 D0 00 00 FF C0
  can0  2DE   [8]  00 00 00 04 B0 00 12 C5
  can0  355   [7]  00 00 00 00 00 FF 1C
  can0  215   [6]  FF 30 FF 00 FF FF
  can0  216   [1]  40
  can0  2DE   [8]  00 00 00 04 B0 00 12 C5
  can0  280   [8]  00 FF D2 40 00 00 FF C0
  can0  2DE   [8]  00 00 00 04 B0 00 12 C5
  can0  215   [6]  FF 30 FF 00 FF FF
  can0  216   [1]  40
  can0  2DE   [8]  00 00 00 04 B0 00 12 C5
  can0  280   [8]  00 FF CD B0 00 00 FF C0
  can0  2DE   [8]  00 00 00 04 B0 00 12 C5
  can0  355   [7]  00 00 00 00 00 FF 1C
  can0  215   [6]  FF 30 FF 00 FF FF
  can0  216   [1]  40
  can0  35D   [8]  00 03 00 00 10 00 00 00
  can0  2DE   [8]  00 00 00 04 B0 00 12 C5
  can0  280   [8]  00 FF D0 20 00 00 FF C0
  can0  5C5   [8]  80 01 31 7E 00 0C 00 7F
  can0  60D   [8]  00 00 18 00 00 00 00 00
  can0  358   [8]  00 00 80 00 00 03 44 2E
  can0  2DE   [8]  00 00 00 04 B0 00 12 C5
  can0  215   [6]  FF 30 FF 00 FF FF
  can0  216   [1]  40
  can0  625   [6]  02 00 CA 0E 03 68
  can0  2DE   [8]  00 00 00 04 B0 00 12 C5
  can0  351   [8]  2C 02 40 0A 00 00 40 08
  can0  280   [8]  00 FF E0 A0 00 00 FF C0
  can0  2DE   [8]  00 00 00 04 B0 00 12 C5
  can0  355   [7]  00 00 00 00 00 FF 1C
  can0  215   [6]  FF 30 FF 00 FF FF
  can0  216   [1]  40
  can0  2DE   [8]  00 00 00 04 B0 00 12 C5
  can0  280   [8]  00 FF E1 00 00 00 FF C0
  can0  2DE   [8]  00 00 00 04 B0 00 12 C5
  can0  215   [6]  FF 30 FF 00 FF FF
  can0  216   [1]  40
  can0  2DE   [8]  00 00 00 04 B0 00 12 C5
  can0  280   [8]  00 FF E4 70 00 00 FF C0
  can0  2DE   [8]  00 00 00 04 B0 00 12 C5
  can0  355   [7]  00 00 00 00 00 FF 1C
  can0  215   [6]  FF 30 FF 00 FF FF
  can0  216   [1]  40
  can0  2DE   [8]  00 00 00 04 B0 00 12 C5
  can0  280   [8]  00 FF F3 E0 00 00 FF C0
  can0  2DE   [8]  00 00 00 04 B0 00 12 C5
  can0  215   [6]  FF 30 FF 00 FF FF
  can0  216   [1]  40
  can0  35D   [8]  00 03 00 00 10 00 00 00
  can0  2DE   [8]  00 00 00 04 B0 00 12 C5
  can0  280   [8]  00 FF F2 40 00 00 FF C0
  can0  5C5   [8]  80 01 31 7E 00 0C 00 7F
  can0  35D   [8]  00 00 00 00 10 00 00 00
  can0  60D   [8]  00 00 18 00 00 00 00 00
  can0  358   [8]  00 00 80 00 00 03 44 2E
  can0  2DE   [8]  00 00 00 04 B0 00 12 C5
  can0  215   [6]  FF 30 FF 00 FF FF
  can0  216   [1]  40
  can0  625   [6]  02 00 CA 0E 03 83
  can0  35D   [8]  00 00 00 00 10 00 00 00
  can0  60D   [8]  00 00 18 00 00 00 00 00
  can0  358   [8]  00 00 80 00 00 03 44 2E
  can0  35D   [8]  00 00 00 00 10 00 00 00
  can0  60D   [8]  00 00 18 00 00 00 00 00
  can0  358   [8]  00 00 80 00 00 03 44 2E
  can0  35D   [8]  00 00 00 00 10 00 00 00
  can0  60D   [8]  00 00 18 00 00 00 00 00
  can0  358   [8]  00 00 80 00 00 03 44 2E
  can0  35D   [8]  00 00 00 00 10 00 00 00
  can0  60D   [8]  00 00 18 00 00 00 00 00
  can0  358   [8]  00 00 80 00 00 03 44 2E
  can0  35D   [8]  00 00 00 00 10 00 00 00
  can0  60D   [8]  00 00 18 00 00 00 00 00
  can0  358   [8]  00 00 80 00 00 03 44 2E
  can0  35D   [8]  00 00 00 00 10 00 00 00
  can0  60D   [8]  00 00 18 00 00 00 00 00
  can0  358   [8]  00 00 80 00 00 03 44 2E
  can0  35D   [8]  00 00 00 00 10 00 00 00
  can0  60D   [8]  00 00 18 00 00 00 00 00
  can0  358   [8]  00 00 80 00 00 03 44 2E
  can0  35D   [8]  00 00 00 00 10 00 00 00
  can0  60D   [8]  00 00 18 00 00 00 00 00
  can0  358   [8]  00 00 80 00 00 03 44 2E
  can0  35D   [8]  00 00 00 00 10 00 00 00
  can0  60D   [8]  00 00 18 00 00 00 00 00
  can0  358   [8]  00 00 80 00 00 03 44 2E